EC-Lab ASCII FILE
Nb header lines : 59                          

Potentio Electrochemical Impedance Spectroscopy

Run on channel : 1 (SN 8310)
User : 
CE vs. WE compliance from -10 V to 10 V
Electrode connection : standard
Ewe ctrl range : min = 0.00 V, max = 5.00 V
Safety Limits :
	Do not start on E overload
Acquisition started on : 06/12/2019 15:43:20
Saved on :
	File : ATM001BC-PS00-01-RT -0PSI_C01.mpr
	Directory : S:\R & D\Anode\Dodji\EIS folder for ATM\EIS for Recycled sample\6-12-2019\
	Host : 192.168.0.127
Device : VMP3 (SN 0411)
Address : 192.168.0.3
EC-Lab for windows v11.12 (software)
Internet server v11.12 (firmware)
Command interpretor v11.12 (firmware)
Electrode material : 
Initial state : 
Electrolyte : 
Comments : 
Electrode surface area : 0.001 cm²
Characteristic mass : 0.001 g
Equivalent Weight : 0.000 g/eq.
Density : 0.000 g/cm3
Mode                Single sine         
E (V)               0.0000              
vs.                 Eoc                 
tE (h:m:s)          0:00:0.0000         
record              0                   
dI                  0.000               
unit dI             mA                  
dt (s)              0.000               
fi                  1.000               
unit fi             MHz                 
ff                  100.000             
unit ff             mHz                 
Nd                  6                   
Points              per decade          
spacing             Logarithmic         
Va (mV)             10.0                
pw                  0.10                
Na                  2                   
corr                0                   
E range min (V)     0.000               
E range max (V)     5.000               
I Range             Auto                
Bandwidth           7                   
nc cycles           0                   
goto Ns'            0                   
nr cycles           0                   
inc. cycle          0                   

freq/Hz	Re(Z)/Ohm	-Im(Z)/Ohm	|Z|/Ohm	Phase(Z)/deg	time/s	<Ewe>/V	<I>/mA	Cs/µF	Cp/µF	cycle number	I Range	|Ewe|/V	|I|/A	Re(Y)/Ohm-1	Im(Y)/Ohm-1	|Y|/Ohm-1	Phase(Y)/deg
1.0000193E+006	1.6913881E+002	6.4926926E+001	1.8117241E+002	-2.1000183E+001	2.411097101197811E+000	3.7991920E+000	-1.3085296E-003	2.4512461E-003	3.1481287E-004	1.000000000000000E+000	11	5.3018174E-004	2.9263933E-006	5.1529882E-003	1.9780658E-003	5.5196043E-003	2.1000183E+001
6.7494119E+005	1.8249550E+002	3.8899868E+001	1.8659531E+002	-1.2032813E+001	2.801086426363327E+000	3.8008461E+000	5.5336615E-004	6.0618622E-003	2.6345163E-004	1.000000000000000E+000	11	1.0549456E-002	5.6536555E-005	5.2414411E-003	1.1172405E-003	5.3591914E-003	1.2032813E+001
4.5554678E+005	1.7594933E+002	3.0874678E+001	1.7863765E+002	-9.9526405E+000	3.317075970873702E+000	3.8012776E+000	1.2329058E-003	1.1315786E-002	3.3802094E-004	1.000000000000000E+000	11	1.0388737E-002	5.8155358E-005	5.5136806E-003	9.6751214E-004	5.5979239E-003	9.9526405E+000
3.0747063E+005	1.7801010E+002	2.8670582E+001	1.8030418E+002	-9.1495714E+000	3.833083728735801E+000	3.8013101E+000	6.3828338E-004	1.8054273E-002	4.5650065E-004	1.000000000000000E+000	11	1.0131526E-002	5.6191297E-005	5.4756165E-003	8.8191131E-004	5.5461829E-003	9.1495714E+000
2.0752925E+005	1.8319844E+002	2.8449898E+001	1.8539435E+002	-8.8272676E+000	4.223082440585131E+000	3.8013370E+000	7.3828694E-004	2.6956288E-002	6.3478778E-004	1.000000000000000E+000	11	1.0693630E-002	5.7680452E-005	5.3300196E-003	8.2772819E-004	5.3939079E-003	8.8272676E+000
1.4006833E+005	1.8891328E+002	2.7905655E+001	1.9096323E+002	-8.4027805E+000	4.613077045767568E+000	3.8013909E+000	8.0141769E-004	4.0718142E-002	8.6950668E-004	1.000000000000000E+000	11	1.0331932E-002	5.4104305E-005	5.1803966E-003	7.6523132E-004	5.2366103E-003	8.4027805E+000
9.4540992E+004	1.9426486E+002	2.7266750E+001	1.9616910E+002	-7.9897623E+000	5.003076237626374E+000	3.8014131E+000	9.7423594E-004	6.1739992E-002	1.1928125E-003	1.000000000000000E+000	11	1.0253647E-002	5.2269432E-005	5.0481600E-003	7.0855278E-004	5.0976430E-003	7.9897623E+000
6.3808578E+004	1.9883107E+002	2.7420937E+001	2.0071298E+002	-7.8521714E+000	5.267075503506931E+000	3.8013918E+000	9.7404979E-004	9.0961747E-002	1.6977448E-003	1.000000000000000E+000	11	1.0958916E-002	5.4599936E-005	4.9355244E-003	6.8066176E-004	4.9822386E-003	7.8521714E+000
4.3066391E+004	2.0336740E+002	2.8641468E+001	2.0537437E+002	-8.0165882E+000	5.657081308687339E+000	3.8013797E+000	8.4797415E-004	1.2902871E-001	2.5094838E-003	1.000000000000000E+000	11	1.0085425E-002	4.9107515E-005	4.8215738E-003	6.7905156E-004	4.8691565E-003	8.0165882E+000
2.9072260E+004	2.0786707E+002	3.2671276E+001	2.1041893E+002	-8.9323263E+000	5.921079161227681E+000	3.8013697E+000	9.4890897E-004	1.6756189E-001	4.0395949E-003	1.000000000000000E+000	11	1.0219249E-002	4.8566206E-005	4.6947887E-003	7.3789828E-004	4.7524241E-003	8.9323263E+000
1.9619135E+004	2.1225780E+002	3.9026558E+001	2.1581577E+002	-1.0418268E+001	6.185081733769039E+000	3.8013728E+000	1.0982626E-003	2.0786436E-001	6.7972653E-003	1.000000000000000E+000	11	1.0282330E-002	4.7644018E-005	4.5571919E-003	8.3790330E-004	4.6335817E-003	1.0418268E+001
1.3242185E+004	2.1861613E+002	4.8843399E+001	2.2400601E+002	-1.2594234E+001	6.449083106301259E+000	3.8013666E+000	9.0961508E-004	2.4606769E-001	1.1698954E-002	1.000000000000000E+000	11	1.0304127E-002	4.5999332E-005	4.3567521E-003	9.7338919E-004	4.4641658E-003	1.2594234E+001
8.9372871E+003	2.2652045E+002	6.2194279E+001	2.3490347E+002	-1.5353005E+001	6.736377839959459E+000	3.8013356E+000	2.4869660E-004	2.8632811E-001	2.0071784E-002	1.000000000000000E+000	11	1.0299359E-002	4.3845066E-005	4.1051451E-003	1.1271236E-003	4.2570676E-003	1.5353005E+001
6.0573447E+003	2.3726579E+002	7.8446457E+001	2.4989778E+002	-1.8295277E+001	7.133955858851550E+000	3.8013821E+000	8.4201456E-004	3.3493808E-001	3.3005506E-002	1.000000000000000E+000	11	1.0295521E-002	4.1198928E-005	3.7993588E-003	1.2561703E-003	4.0016361E-003	1.8295277E+001
4.0713020E+003	2.4965578E+002	1.0119410E+002	2.6938495E+002	-2.2064411E+001	7.591669587272918E+000	3.8013794E+000	8.1054214E-004	3.8630617E-001	5.4512408E-002	1.000000000000000E+000	11	1.0285664E-002	3.8182032E-005	3.4402893E-003	1.3944679E-003	3.7121598E-003	2.2064411E+001
2.7473621E+003	2.6136523E+002	1.3009660E+002	2.9195361E+002	-2.6462187E+001	8.048957768973196E+000	3.8013864E+000	9.0160687E-004	4.4528523E-001	8.8418365E-002	1.000000000000000E+000	11	1.0272074E-002	3.5183923E-005	3.0663386E-003	1.5262942E-003	3.4252016E-003	2.6462187E+001
1.8555934E+003	2.7642310E+002	1.7463800E+002	3.2696814E+002	-3.2283791E+001	8.505690004021744E+000	3.8013937E+000	8.7367278E-004	4.9113238E-001	1.4010873E-001	1.000000000000000E+000	11	1.0279612E-002	3.1439184E-005	2.5856127E-003	1.6335328E-003	3.0584019E-003	3.2283791E+001
1.2520027E+003	2.9699515E+002	2.4033078E+002	3.8205365E+002	-3.8980053E+001	9.209425557375653E+000	3.8013895E+000	-2.3181194E-004	5.2893889E-001	2.0930305E-001	1.000000000000000E+000	12	1.0374572E-002	2.7154752E-005	2.0347012E-003	1.6464960E-003	2.6174334E-003	3.8980053E+001
8.4527020E+002	3.2877283E+002	3.3438440E+002	4.6893976E+002	-4.5484821E+001	9.665671179114725E+000	3.8013835E+000	-1.3376829E-004	5.6309098E-001	2.8630996E-001	1.000000000000000E+000	12	1.0330914E-002	2.2030365E-005	1.4950709E-003	1.5205892E-003	2.1324700E-003	4.5484821E+001
5.7018231E+002	3.8900989E+002	4.6442383E+002	6.0582025E+002	-5.0049843E+001	1.012268434749421E+001	3.8013771E+000	-1.5589951E-004	6.0102415E-001	3.5321027E-001	1.000000000000000E+000	12	1.0297492E-002	1.6997603E-005	1.0599199E-003	1.2653973E-003	1.6506546E-003	5.0049843E+001
3.8512314E+002	4.9826129E+002	6.3702924E+002	8.0874628E+002	-5.1968765E+001	1.057969607586710E+001	3.8013783E+000	-1.7912984E-004	6.4872575E-001	4.0249020E-001	1.000000000000000E+000	12	1.0286324E-002	1.2718851E-005	7.6178520E-004	9.7394572E-004	1.2364817E-003	5.1968765E+001
2.5975055E+002	6.8385931E+002	8.4243738E+002	1.0850642E+003	-5.0931595E+001	1.103592687085620E+001	3.8013821E+000	-2.0966266E-004	7.2732085E-001	4.3842006E-001	1.000000000000000E+000	12	1.0270332E-002	9.4651841E-006	5.8083917E-004	7.1552821E-004	9.2160446E-004	5.0931595E+001
1.7528040E+002	9.7145636E+002	1.0258571E+003	1.4128376E+003	-4.6560177E+001	1.149041337243398E+001	3.8013785E+000	-2.2322453E-004	8.8511550E-001	4.6664768E-001	1.000000000000000E+000	12	1.0262402E-002	7.2636808E-006	4.8667472E-004	5.1392813E-004	7.0779544E-004	4.6560177E+001
1.1837119E+002	1.3309558E+003	1.1210676E+003	1.7401827E+003	-4.0107525E+001	1.195249091435107E+001	3.8013816E+000	-1.9755393E-004	1.1993400E+000	4.9775568E-001	1.000000000000000E+000	12	1.0262322E-002	5.8972669E-006	4.3951522E-004	3.7020483E-004	5.7465228E-004	4.0107525E+001
7.9923256E+001	1.7610791E+003	1.1142992E+003	2.0840015E+003	-3.2323032E+001	1.240893154940568E+001	3.8013809E+000	-1.1687227E-004	1.7870847E+000	5.1091981E-001	1.000000000000000E+000	12	1.0261577E-002	4.9239775E-006	4.0549249E-004	2.5656991E-004	4.7984612E-004	3.2323032E+001
5.3913105E+001	2.1260237E+003	9.6949957E+002	2.3366443E+003	-2.4513716E+001	1.312477425007091E+001	3.8013721E+000	-3.9067675E-004	3.0449359E+000	5.2418935E-001	1.000000000000000E+000	13	1.0263463E-002	4.3923942E-006	3.8938830E-004	1.7756705E-004	4.2796414E-004	2.4513716E+001
3.6409779E+001	2.3902109E+003	7.7453217E+002	2.5125701E+003	-1.7954576E+001	1.356600731101935E+001	3.8013787E+000	-3.8190372E-004	5.6436834E+000	5.3629678E-001	1.000000000000000E+000	13	1.0271234E-002	4.0879390E-006	3.7861677E-004	1.2268827E-004	3.9799884E-004	1.7954576E+001
2.4567608E+001	2.5390542E+003	5.8017841E+002	2.6044968E+003	-1.2871208E+001	1.403025829305989E+001	3.8013823E+000	-3.8912924E-004	1.1165951E+001	5.5407828E-001	1.000000000000000E+000	13	1.0266714E-002	3.9419183E-006	3.7430387E-004	8.5529093E-005	3.8395132E-004	1.2871208E+001
1.6575317E+001	2.6523940E+003	4.5106897E+002	2.6904753E+003	-9.6514454E+000	1.444671945953451E+001	3.8013794E+000	-3.8555003E-004	2.1287043E+001	5.9833336E-001	1.000000000000000E+000	13	1.0261263E-002	3.8139219E-006	3.6642072E-004	6.2313891E-005	3.7168153E-004	9.6514454E+000
1.1192690E+001	2.7262019E+003	3.4677261E+002	2.7481682E+003	-7.2490883E+000	1.485940438575926E+001	3.8013833E+000	-3.7735986E-004	4.1005383E+001	6.5289575E-001	1.000000000000000E+000	13	1.0264334E-002	3.7349732E-006	3.6097024E-004	4.5915378E-005	3.6387873E-004	7.2490883E+000
7.5556078E+000	2.7436233E+003	2.4128758E+002	2.7542129E+003	-5.0259390E+000	1.545147657385678E+001	3.8013823E+000	-4.0426559E-004	8.7300301E+001	6.7002445E-001	1.000000000000000E+000	13	1.0260817E-002	3.7254988E-006	3.6168416E-004	3.1808264E-005	3.6308015E-004	5.0259390E+000
5.0995426E+000	2.7551523E+003	1.8763377E+002	2.7615342E+003	-3.8959911E+000	1.589883168850793E+001	3.8013880E+000	-3.9160231E-004	1.6633279E+002	7.6789016E-001	1.000000000000000E+000	13	1.0256029E-002	3.7138882E-006	3.6128069E-004	2.4604251E-005	3.6211754E-004	3.8959911E+000
3.4385996E+000	2.7933750E+003	1.2490044E+002	2.7961660E+003	-2.5601661E+000	1.654458489248645E+001	3.8013830E+000	-3.8612174E-004	3.7057370E+002	7.3939514E-001	1.000000000000000E+000	13	1.0259591E-002	3.6691638E-006	3.5727560E-004	1.5974896E-005	3.5763255E-004	2.5601661E+000
2.3196251E+000	2.7887664E+003	8.4524712E+001	2.7900469E+003	-1.7360463E+000	1.748301909706788E+001	3.8013844E+000	-3.9367782E-004	8.1174310E+002	7.4501157E-001	1.000000000000000E+000	13	1.0260040E-002	3.6773720E-006	3.5825241E-004	1.0858273E-005	3.5841693E-004	1.7360463E+000
1.5687751E+000	2.7897310E+003	7.8665894E+001	2.7908398E+003	-1.6152202E+000	1.885341838878230E+001	3.8013895E+000	-3.8511015E-004	1.2896533E+003	1.0246514E+000	1.000000000000000E+000	13	1.0257395E-002	3.6753793E-006	3.5817269E-004	1.0099890E-005	3.5831507E-004	1.6152202E+000
1.0586042E+000	2.7813303E+003	5.2967545E+001	2.7818347E+003	-1.0910066E+000	2.185774042486446E+001	3.8013892E+000	-3.9624251E-004	2.8384199E+003	1.0290434E+000	1.000000000000000E+000	14	1.0262089E-002	3.6889642E-006	3.5940984E-004	6.8445866E-006	3.5947500E-004	1.0910066E+000
7.1373087E-001	2.7878547E+003	4.2350456E+001	2.7881765E+003	-8.7031639E-001	2.483167784613033E+001	3.8013866E+000	-4.0615461E-004	5.2653540E+003	1.2147956E+000	1.000000000000000E+000	14	1.0262586E-002	3.6807521E-006	3.5861597E-004	5.4477550E-006	3.5865736E-004	8.7031639E-001
4.8225307E-001	2.7835286E+003	3.1814201E+001	2.7837104E+003	-6.5483075E-001	2.921655498768087E+001	3.8013875E+000	-3.9209923E-004	1.0373472E+004	1.3549337E+000	1.000000000000000E+000	14	1.0265448E-002	3.6876852E-006	3.5920931E-004	4.1055650E-006	3.5923277E-004	6.5483075E-001
3.2552075E-001	2.7835149E+003	2.9138889E+001	2.7836675E+003	-5.9977204E-001	3.569976092233264E+001	3.8013968E+000	-4.0132232E-004	1.6779092E+004	1.8385682E+000	1.000000000000000E+000	14	1.0265729E-002	3.6878432E-006	3.5921863E-004	3.7604366E-006	3.5923830E-004	5.9977204E-001
2.1974848E-001	2.7311318E+003	2.6952894E+001	2.7312649E+003	-5.6542015E-001	4.528960916450296E+001	3.8013866E+000	-4.0086344E-004	2.6871313E+004	2.6168091E+000	1.000000000000000E+000	14	1.0264597E-002	3.7581842E-006	3.6611289E-004	3.6130816E-006	3.6613073E-004	5.6542015E-001
1.4802007E-001	2.7646655E+003	2.9788198E+001	2.7648259E+003	-6.1731589E-001	5.951609813349205E+001	3.8013906E+000	-4.0070957E-004	3.6095684E+004	4.1899433E+000	1.000000000000000E+000	14	1.0261034E-002	3.7112766E-006	3.6166544E-004	3.8968046E-006	3.6168643E-004	6.1731589E-001
9.9927090E-002	2.7431929E+003	2.9217360E+001	2.7433484E+003	-6.1022615E-001	8.057549716046196E+001	3.8013880E+000	-3.7769784E-004	5.4512477E+004	6.1832376E+000	1.000000000000000E+000	14	1.0264593E-002	3.7416296E-006	3.6449739E-004	3.8822100E-006	3.6451805E-004	6.1022615E-001